! S2P file converted from CSV (duplicates averaged)
! Original file: /content/CalInput_to_CH2FanOutChassis.xlsx - CalInput_to_CH2FanOutChassis.csv
# MHz S MA R 50
5.000000e-06 1.000000e-01 0.0 3.180534e-05 0.0 1.000000e-03 0.0 1.000000e-01 0.0
5.100000e-06 1.000000e-01 0.0 3.447466e-05 0.0 1.000000e-03 0.0 1.000000e-01 0.0
5.200000e-06 1.000000e-01 0.0 3.380648e-05 0.0 1.000000e-03 0.0 1.000000e-01 0.0
5.300000e-06 1.000000e-01 0.0 2.349633e-05 0.0 1.000000e-03 0.0 1.000000e-01 0.0
5.400000e-06 1.000000e-01 0.0 3.147748e-05 0.0 1.000000e-03 0.0 1.000000e-01 0.0
5.500000e-06 1.000000e-01 0.0 3.345800e-05 0.0 1.000000e-03 0.0 1.000000e-01 0.0
5.600000e-06 1.000000e-01 0.0 3.151374e-05 0.0 1.000000e-03 0.0 1.000000e-01 0.0
5.700000e-06 1.000000e-01 0.0 3.140509e-05 0.0 1.000000e-03 0.0 1.000000e-01 0.0
5.800000e-06 1.000000e-01 0.0 3.439537e-05 0.0 1.000000e-03 0.0 1.000000e-01 0.0
5.900000e-06 1.000000e-01 0.0 2.621199e-05 0.0 1.000000e-03 0.0 1.000000e-01 0.0
6.000000e-06 1.000000e-01 0.0 3.521681e-05 0.0 1.000000e-03 0.0 1.000000e-01 0.0
6.100000e-06 1.000000e-01 0.0 3.136895e-05 0.0 1.000000e-03 0.0 1.000000e-01 0.0
6.200000e-06 1.000000e-01 0.0 4.097321e-05 0.0 1.000000e-03 0.0 1.000000e-01 0.0
6.300000e-06 1.000000e-01 0.0 2.854303e-05 0.0 1.000000e-03 0.0 1.000000e-01 0.0
6.400000e-06 1.000000e-01 0.0 2.691535e-05 0.0 1.000000e-03 0.0 1.000000e-01 0.0
6.500000e-06 1.000000e-01 0.0 3.672823e-05 0.0 1.000000e-03 0.0 1.000000e-01 0.0
6.600000e-06 1.000000e-01 0.0 2.314728e-05 0.0 1.000000e-03 0.0 1.000000e-01 0.0
6.700000e-06 1.000000e-01 0.0 1.794734e-05 0.0 1.000000e-03 0.0 1.000000e-01 0.0
6.800000e-06 1.000000e-01 0.0 2.341531e-05 0.0 1.000000e-03 0.0 1.000000e-01 0.0
6.900000e-06 1.000000e-01 0.0 1.964491e-05 0.0 1.000000e-03 0.0 1.000000e-01 0.0
7.000000e-06 1.000000e-01 0.0 2.338837e-05 0.0 1.000000e-03 0.0 1.000000e-01 0.0
7.200000e-06 1.000000e-01 0.0 3.023431e-05 0.0 1.000000e-03 0.0 1.000000e-01 0.0
7.300000e-06 1.000000e-01 0.0 2.633298e-05 0.0 1.000000e-03 0.0 1.000000e-01 0.0
7.400000e-06 1.000000e-01 0.0 2.676086e-05 0.0 1.000000e-03 0.0 1.000000e-01 0.0
7.500000e-06 1.000000e-01 0.0 4.022537e-05 0.0 1.000000e-03 0.0 1.000000e-01 0.0
7.600000e-06 1.000000e-01 0.0 3.051406e-05 0.0 1.000000e-03 0.0 1.000000e-01 0.0
7.700000e-06 1.000000e-01 0.0 1.243083e-05 0.0 1.000000e-03 0.0 1.000000e-01 0.0
7.800000e-06 1.000000e-01 0.0 2.443431e-05 0.0 1.000000e-03 0.0 1.000000e-01 0.0
7.900000e-06 1.000000e-01 0.0 2.549764e-05 0.0 1.000000e-03 0.0 1.000000e-01 0.0
8.000000e-06 1.000000e-01 0.0 3.009539e-05 0.0 1.000000e-03 0.0 1.000000e-01 0.0
8.100000e-06 1.000000e-01 0.0 1.093956e-05 0.0 1.000000e-03 0.0 1.000000e-01 0.0
8.200000e-06 1.000000e-01 0.0 2.900681e-05 0.0 1.000000e-03 0.0 1.000000e-01 0.0
8.300000e-06 1.000000e-01 0.0 1.828100e-05 0.0 1.000000e-03 0.0 1.000000e-01 0.0
8.400000e-06 1.000000e-01 0.0 2.468880e-05 0.0 1.000000e-03 0.0 1.000000e-01 0.0
8.500000e-06 1.000000e-01 0.0 3.180534e-05 0.0 1.000000e-03 0.0 1.000000e-01 0.0
8.600000e-06 1.000000e-01 0.0 2.480276e-05 0.0 1.000000e-03 0.0 1.000000e-01 0.0
8.700000e-06 1.000000e-01 0.0 2.187762e-05 0.0 1.000000e-03 0.0 1.000000e-01 0.0
8.800000e-06 1.000000e-01 0.0 2.494595e-05 0.0 1.000000e-03 0.0 1.000000e-01 0.0
8.900000e-06 1.000000e-01 0.0 1.366155e-05 0.0 1.000000e-03 0.0 1.000000e-01 0.0
9.000000e-06 1.000000e-01 0.0 2.676086e-05 0.0 1.000000e-03 0.0 1.000000e-01 0.0
9.100000e-06 1.000000e-01 0.0 2.561533e-05 0.0 1.000000e-03 0.0 1.000000e-01 0.0
9.200000e-06 1.000000e-01 0.0 3.419794e-05 0.0 1.000000e-03 0.0 1.000000e-01 0.0
9.300000e-06 1.000000e-01 0.0 3.672823e-05 0.0 1.000000e-03 0.0 1.000000e-01 0.0
9.400000e-06 1.000000e-01 0.0 2.058259e-05 0.0 1.000000e-03 0.0 1.000000e-01 0.0
9.500000e-06 1.000000e-01 0.0 2.488857e-05 0.0 1.000000e-03 0.0 1.000000e-01 0.0
9.600000e-06 1.000000e-01 0.0 2.988822e-05 0.0 1.000000e-03 0.0 1.000000e-01 0.0
9.800000e-06 1.000000e-01 0.0 2.415461e-05 0.0 1.000000e-03 0.0 1.000000e-01 0.0
9.900000e-06 1.000000e-01 0.0 2.374105e-05 0.0 1.000000e-03 0.0 1.000000e-01 0.0
1.010000e-05 1.000000e-01 0.0 2.947813e-05 0.0 1.000000e-03 0.0 1.000000e-01 0.0
1.020000e-05 1.000000e-01 0.0 1.256030e-05 0.0 1.000000e-03 0.0 1.000000e-01 0.0
1.040000e-05 1.000000e-01 0.0 2.773320e-05 0.0 1.000000e-03 0.0 1.000000e-01 0.0
1.050000e-05 1.000000e-01 0.0 3.054921e-05 0.0 1.000000e-03 0.0 1.000000e-01 0.0
1.060000e-05 1.000000e-01 0.0 2.716439e-05 0.0 1.000000e-03 0.0 1.000000e-01 0.0
1.080000e-05 1.000000e-01 0.0 3.202580e-05 0.0 1.000000e-03 0.0 1.000000e-01 0.0
1.090000e-05 1.000000e-01 0.0 1.438799e-05 0.0 1.000000e-03 0.0 1.000000e-01 0.0
1.110000e-05 1.000000e-01 0.0 2.985383e-05 0.0 1.000000e-03 0.0 1.000000e-01 0.0
1.120000e-05 1.000000e-01 0.0 2.757401e-05 0.0 1.000000e-03 0.0 1.000000e-01 0.0
1.140000e-05 1.000000e-01 0.0 1.479108e-05 0.0 1.000000e-03 0.0 1.000000e-01 0.0
1.150000e-05 1.000000e-01 0.0 1.737801e-05 0.0 1.000000e-03 0.0 1.000000e-01 0.0
1.160000e-05 1.000000e-01 0.0 3.655948e-05 0.0 1.000000e-03 0.0 1.000000e-01 0.0
1.180000e-05 1.000000e-01 0.0 5.272299e-06 0.0 1.000000e-03 0.0 1.000000e-01 0.0
1.190000e-05 1.000000e-01 0.0 3.451437e-05 0.0 1.000000e-03 0.0 1.000000e-01 0.0
1.210000e-05 1.000000e-01 0.0 3.580964e-05 0.0 1.000000e-03 0.0 1.000000e-01 0.0
1.220000e-05 1.000000e-01 0.0 2.312065e-05 0.0 1.000000e-03 0.0 1.000000e-01 0.0
1.230000e-05 1.000000e-01 0.0 5.457579e-06 0.0 1.000000e-03 0.0 1.000000e-01 0.0
1.250000e-05 1.000000e-01 0.0 2.254239e-05 0.0 1.000000e-03 0.0 1.000000e-01 0.0
1.260000e-05 1.000000e-01 0.0 3.819443e-05 0.0 1.000000e-03 0.0 1.000000e-01 0.0
1.280000e-05 1.000000e-01 0.0 2.500345e-05 0.0 1.000000e-03 0.0 1.000000e-01 0.0
1.290000e-05 1.000000e-01 0.0 3.749730e-05 0.0 1.000000e-03 0.0 1.000000e-01 0.0
1.310000e-05 1.000000e-01 0.0 2.140425e-05 0.0 1.000000e-03 0.0 1.000000e-01 0.0
1.320000e-05 1.000000e-01 0.0 3.299894e-05 0.0 1.000000e-03 0.0 1.000000e-01 0.0
1.340000e-05 1.000000e-01 0.0 2.133045e-05 0.0 1.000000e-03 0.0 1.000000e-01 0.0
1.360000e-05 1.000000e-01 0.0 2.851018e-05 0.0 1.000000e-03 0.0 1.000000e-01 0.0
1.380000e-05 1.000000e-01 0.0 2.167704e-05 0.0 1.000000e-03 0.0 1.000000e-01 0.0
1.400000e-05 1.000000e-01 0.0 1.741807e-05 0.0 1.000000e-03 0.0 1.000000e-01 0.0
1.420000e-05 1.000000e-01 0.0 3.292305e-05 0.0 1.000000e-03 0.0 1.000000e-01 0.0
1.440000e-05 1.000000e-01 0.0 1.809256e-05 0.0 1.000000e-03 0.0 1.000000e-01 0.0
1.460000e-05 1.000000e-01 0.0 3.894933e-05 0.0 1.000000e-03 0.0 1.000000e-01 0.0
1.480000e-05 1.000000e-01 0.0 2.821630e-05 0.0 1.000000e-03 0.0 1.000000e-01 0.0
1.500000e-05 1.000000e-01 0.0 3.702542e-05 0.0 1.000000e-03 0.0 1.000000e-01 0.0
1.520000e-05 1.000000e-01 0.0 2.666859e-05 0.0 1.000000e-03 0.0 1.000000e-01 0.0
1.540000e-05 1.000000e-01 0.0 3.322768e-05 0.0 1.000000e-03 0.0 1.000000e-01 0.0
1.560000e-05 1.000000e-01 0.0 1.684612e-05 0.0 1.000000e-03 0.0 1.000000e-01 0.0
1.580000e-05 1.000000e-01 0.0 2.934270e-05 0.0 1.000000e-03 0.0 1.000000e-01 0.0
1.600000e-05 1.000000e-01 0.0 1.312200e-05 0.0 1.000000e-03 0.0 1.000000e-01 0.0
1.620000e-05 1.000000e-01 0.0 3.392345e-06 0.0 1.000000e-03 0.0 1.000000e-01 0.0
1.640000e-05 1.000000e-01 0.0 2.106202e-05 0.0 1.000000e-03 0.0 1.000000e-01 0.0
1.660000e-05 1.000000e-01 0.0 3.819443e-05 0.0 1.000000e-03 0.0 1.000000e-01 0.0
1.680000e-05 1.000000e-01 0.0 1.792669e-05 0.0 1.000000e-03 0.0 1.000000e-01 0.0
1.700000e-05 1.000000e-01 0.0 3.315126e-05 0.0 1.000000e-03 0.0 1.000000e-01 0.0
1.720000e-05 1.000000e-01 0.0 4.645153e-05 0.0 1.000000e-03 0.0 1.000000e-01 0.0
1.740000e-05 1.000000e-01 0.0 1.563148e-05 0.0 1.000000e-03 0.0 1.000000e-01 0.0
1.750000e-05 1.000000e-01 0.0 2.920788e-05 0.0 1.000000e-03 0.0 1.000000e-01 0.0
1.770000e-05 1.000000e-01 0.0 1.205036e-05 0.0 1.000000e-03 0.0 1.000000e-01 0.0
1.790000e-05 1.000000e-01 0.0 1.970153e-05 0.0 1.000000e-03 0.0 1.000000e-01 0.0
1.810000e-05 1.000000e-01 0.0 2.118361e-05 0.0 1.000000e-03 0.0 1.000000e-01 0.0
1.840000e-05 1.000000e-01 0.0 4.310226e-05 0.0 1.000000e-03 0.0 1.000000e-01 0.0
1.860000e-05 1.000000e-01 0.0 3.221069e-05 0.0 1.000000e-03 0.0 1.000000e-01 0.0
1.890000e-05 1.000000e-01 0.0 5.308844e-05 0.0 1.000000e-03 0.0 1.000000e-01 0.0
1.920000e-05 1.000000e-01 0.0 3.447466e-05 0.0 1.000000e-03 0.0 1.000000e-01 0.0
1.950000e-05 1.000000e-01 0.0 1.217587e-05 0.0 1.000000e-03 0.0 1.000000e-01 0.0
1.970000e-05 1.000000e-01 0.0 5.401321e-05 0.0 1.000000e-03 0.0 1.000000e-01 0.0
2.000000e-05 1.000000e-01 0.0 1.741807e-05 0.0 1.000000e-03 0.0 1.000000e-01 0.0
2.030000e-05 1.000000e-01 0.0 4.022537e-05 0.0 1.000000e-03 0.0 1.000000e-01 0.0
2.060000e-05 1.000000e-01 0.0 3.051406e-05 0.0 1.000000e-03 0.0 1.000000e-01 0.0
2.080000e-05 1.000000e-01 0.0 1.956591e-05 0.0 1.000000e-03 0.0 1.000000e-01 0.0
2.110000e-05 1.000000e-01 0.0 5.616943e-05 0.0 1.000000e-03 0.0 1.000000e-01 0.0
2.140000e-05 1.000000e-01 0.0 3.093855e-05 0.0 1.000000e-03 0.0 1.000000e-01 0.0
2.160000e-05 1.000000e-01 0.0 3.576844e-05 0.0 1.000000e-03 0.0 1.000000e-01 0.0
2.190000e-05 1.000000e-01 0.0 3.930972e-05 0.0 1.000000e-03 0.0 1.000000e-01 0.0
2.220000e-05 1.000000e-01 0.0 5.597576e-05 0.0 1.000000e-03 0.0 1.000000e-01 0.0
2.250000e-05 1.000000e-01 0.0 4.280554e-05 0.0 1.000000e-03 0.0 1.000000e-01 0.0
2.270000e-05 1.000000e-01 0.0 1.836538e-05 0.0 1.000000e-03 0.0 1.000000e-01 0.0
2.300000e-05 1.000000e-01 0.0 2.564484e-05 0.0 1.000000e-03 0.0 1.000000e-01 0.0
2.330000e-05 1.000000e-01 0.0 2.618183e-05 0.0 1.000000e-03 0.0 1.000000e-01 0.0
2.360000e-05 1.000000e-01 0.0 3.698282e-05 0.0 1.000000e-03 0.0 1.000000e-01 0.0
2.380000e-05 1.000000e-01 0.0 1.766038e-05 0.0 1.000000e-03 0.0 1.000000e-01 0.0
2.410000e-05 1.000000e-01 0.0 2.457537e-05 0.0 1.000000e-03 0.0 1.000000e-01 0.0
2.440000e-05 1.000000e-01 0.0 5.432503e-05 0.0 1.000000e-03 0.0 1.000000e-01 0.0
2.460000e-05 1.000000e-01 0.0 3.284732e-05 0.0 1.000000e-03 0.0 1.000000e-01 0.0
2.490000e-05 1.000000e-01 0.0 3.962780e-05 0.0 1.000000e-03 0.0 1.000000e-01 0.0
2.520000e-05 1.000000e-01 0.0 3.392345e-05 0.0 1.000000e-03 0.0 1.000000e-01 0.0
2.550000e-05 1.000000e-01 0.0 1.230269e-05 0.0 1.000000e-03 0.0 1.000000e-01 0.0
2.590000e-05 1.000000e-01 0.0 2.992265e-05 0.0 1.000000e-03 0.0 1.000000e-01 0.0
2.630000e-05 1.000000e-01 0.0 9.067760e-06 0.0 1.000000e-03 0.0 1.000000e-01 0.0
2.660000e-05 1.000000e-01 0.0 1.836538e-05 0.0 1.000000e-03 0.0 1.000000e-01 0.0
2.700000e-05 1.000000e-01 0.0 4.586696e-05 0.0 1.000000e-03 0.0 1.000000e-01 0.0
2.740000e-05 1.000000e-01 0.0 1.427250e-05 0.0 1.000000e-03 0.0 1.000000e-01 0.0
2.780000e-05 1.000000e-01 0.0 3.133286e-05 0.0 1.000000e-03 0.0 1.000000e-01 0.0
2.820000e-05 1.000000e-01 0.0 1.949845e-05 0.0 1.000000e-03 0.0 1.000000e-01 0.0
2.850000e-05 1.000000e-01 0.0 4.069115e-05 0.0 1.000000e-03 0.0 1.000000e-01 0.0
2.890000e-05 1.000000e-01 0.0 2.857591e-05 0.0 1.000000e-03 0.0 1.000000e-01 0.0
2.930000e-05 1.000000e-01 0.0 1.798871e-05 0.0 1.000000e-03 0.0 1.000000e-01 0.0
2.970000e-05 1.000000e-01 0.0 3.284732e-05 0.0 1.000000e-03 0.0 1.000000e-01 0.0
3.010000e-05 1.000000e-01 0.0 2.508996e-05 0.0 1.000000e-03 0.0 1.000000e-01 0.0
3.040000e-05 1.000000e-01 0.0 1.347411e-05 0.0 1.000000e-03 0.0 1.000000e-01 0.0
3.080000e-05 1.000000e-01 0.0 1.595879e-05 0.0 1.000000e-03 0.0 1.000000e-01 0.0
3.120000e-05 1.000000e-01 0.0 5.236004e-05 0.0 1.000000e-03 0.0 1.000000e-01 0.0
3.160000e-05 1.000000e-01 0.0 2.330773e-05 0.0 1.000000e-03 0.0 1.000000e-01 0.0
3.200000e-05 1.000000e-01 0.0 1.489361e-05 0.0 1.000000e-03 0.0 1.000000e-01 0.0
3.230000e-05 1.000000e-01 0.0 3.467369e-05 0.0 1.000000e-03 0.0 1.000000e-01 0.0
3.270000e-05 1.000000e-01 0.0 9.343294e-06 0.0 1.000000e-03 0.0 1.000000e-01 0.0
3.310000e-05 1.000000e-01 0.0 1.341220e-05 0.0 1.000000e-03 0.0 1.000000e-01 0.0
3.350000e-05 1.000000e-01 0.0 1.294196e-05 0.0 1.000000e-03 0.0 1.000000e-01 0.0
3.380000e-05 1.000000e-01 0.0 4.436086e-05 0.0 1.000000e-03 0.0 1.000000e-01 0.0
3.420000e-05 1.000000e-01 0.0 2.231002e-05 0.0 1.000000e-03 0.0 1.000000e-01 0.0
3.460000e-05 1.000000e-01 0.0 1.388353e-05 0.0 1.000000e-03 0.0 1.000000e-01 0.0
3.500000e-05 1.000000e-01 0.0 2.360478e-05 0.0 1.000000e-03 0.0 1.000000e-01 0.0
3.540000e-05 1.000000e-01 0.0 2.867477e-05 0.0 1.000000e-03 0.0 1.000000e-01 0.0
3.600000e-05 1.000000e-01 0.0 1.160112e-05 0.0 1.000000e-03 0.0 1.000000e-01 0.0
3.650000e-05 1.000000e-01 0.0 3.140509e-05 0.0 1.000000e-03 0.0 1.000000e-01 0.0
3.700000e-05 1.000000e-01 0.0 1.606941e-05 0.0 1.000000e-03 0.0 1.000000e-01 0.0
3.750000e-05 1.000000e-01 0.0 2.423818e-05 0.0 1.000000e-03 0.0 1.000000e-01 0.0
3.810000e-05 1.000000e-01 0.0 5.539875e-05 0.0 1.000000e-03 0.0 1.000000e-01 0.0
3.860000e-05 1.000000e-01 0.0 3.523709e-06 0.0 1.000000e-03 0.0 1.000000e-01 0.0
3.910000e-05 1.000000e-01 0.0 1.499685e-05 0.0 1.000000e-03 0.0 1.000000e-01 0.0
3.960000e-05 1.000000e-01 0.0 3.411929e-05 0.0 1.000000e-03 0.0 1.000000e-01 0.0
4.020000e-05 1.000000e-01 0.0 3.083188e-05 0.0 1.000000e-03 0.0 1.000000e-01 0.0
4.070000e-05 1.000000e-01 0.0 4.597270e-05 0.0 1.000000e-03 0.0 1.000000e-01 0.0
4.120000e-05 1.000000e-01 0.0 1.708048e-05 0.0 1.000000e-03 0.0 1.000000e-01 0.0
4.170000e-05 1.000000e-01 0.0 1.200881e-05 0.0 1.000000e-03 0.0 1.000000e-01 0.0
4.230000e-05 1.000000e-01 0.0 4.965923e-05 0.0 1.000000e-03 0.0 1.000000e-01 0.0
4.280000e-05 1.000000e-01 0.0 4.677351e-05 0.0 1.000000e-03 0.0 1.000000e-01 0.0
4.330000e-05 1.000000e-01 0.0 2.385064e-05 0.0 1.000000e-03 0.0 1.000000e-01 0.0
4.380000e-05 1.000000e-01 0.0 1.547035e-05 0.0 1.000000e-03 0.0 1.000000e-01 0.0
4.440000e-05 1.000000e-01 0.0 2.451884e-05 0.0 1.000000e-03 0.0 1.000000e-01 0.0
4.490000e-05 1.000000e-01 0.0 6.074353e-05 0.0 1.000000e-03 0.0 1.000000e-01 0.0
4.540000e-05 1.000000e-01 0.0 6.516284e-05 0.0 1.000000e-03 0.0 1.000000e-01 0.0
4.600000e-05 1.000000e-01 0.0 9.289664e-05 0.0 1.000000e-03 0.0 1.000000e-01 0.0
4.650000e-05 1.000000e-01 0.0 5.908810e-05 0.0 1.000000e-03 0.0 1.000000e-01 0.0
4.700000e-05 1.000000e-01 0.0 1.138938e-04 0.0 1.000000e-03 0.0 1.000000e-01 0.0
4.750000e-05 1.000000e-01 0.0 6.606934e-05 0.0 1.000000e-03 0.0 1.000000e-01 0.0
4.810000e-05 1.000000e-01 0.0 9.705100e-05 0.0 1.000000e-03 0.0 1.000000e-01 0.0
4.860000e-05 1.000000e-01 0.0 1.161449e-04 0.0 1.000000e-03 0.0 1.000000e-01 0.0
4.920000e-05 1.000000e-01 0.0 5.642869e-05 0.0 1.000000e-03 0.0 1.000000e-01 0.0
4.990000e-05 1.000000e-01 0.0 1.217587e-04 0.0 1.000000e-03 0.0 1.000000e-01 0.0
5.070000e-05 1.000000e-01 0.0 2.145359e-05 0.0 1.000000e-03 0.0 1.000000e-01 0.0
5.140000e-05 1.000000e-01 0.0 4.159106e-05 0.0 1.000000e-03 0.0 1.000000e-01 0.0
5.210000e-05 1.000000e-01 0.0 9.484185e-05 0.0 1.000000e-03 0.0 1.000000e-01 0.0
5.290000e-05 1.000000e-01 0.0 2.958012e-05 0.0 1.000000e-03 0.0 1.000000e-01 0.0
5.360000e-05 1.000000e-01 0.0 1.361445e-04 0.0 1.000000e-03 0.0 1.000000e-01 0.0
5.430000e-05 1.000000e-01 0.0 1.612501e-04 0.0 1.000000e-03 0.0 1.000000e-01 0.0
5.510000e-05 1.000000e-01 0.0 2.446245e-04 0.0 1.000000e-03 0.0 1.000000e-01 0.0
5.580000e-05 1.000000e-01 0.0 2.907368e-04 0.0 1.000000e-03 0.0 1.000000e-01 0.0
5.650000e-05 1.000000e-01 0.0 3.459394e-04 0.0 1.000000e-03 0.0 1.000000e-01 0.0
5.720000e-05 1.000000e-01 0.0 3.994846e-04 0.0 1.000000e-03 0.0 1.000000e-01 0.0
5.800000e-05 1.000000e-01 0.0 4.802861e-04 0.0 1.000000e-03 0.0 1.000000e-01 0.0
5.870000e-05 1.000000e-01 0.0 5.158222e-04 0.0 1.000000e-03 0.0 1.000000e-01 0.0
5.940000e-05 1.000000e-01 0.0 4.937419e-04 0.0 1.000000e-03 0.0 1.000000e-01 0.0
6.020000e-05 1.000000e-01 0.0 4.920395e-04 0.0 1.000000e-03 0.0 1.000000e-01 0.0
6.090000e-05 1.000000e-01 0.0 4.971644e-04 0.0 1.000000e-03 0.0 1.000000e-01 0.0
6.160000e-05 1.000000e-01 0.0 5.069907e-04 0.0 1.000000e-03 0.0 1.000000e-01 0.0
6.240000e-05 1.000000e-01 0.0 4.251087e-04 0.0 1.000000e-03 0.0 1.000000e-01 0.0
6.310000e-05 1.000000e-01 0.0 3.372873e-04 0.0 1.000000e-03 0.0 1.000000e-01 0.0
6.380000e-05 1.000000e-01 0.0 4.139997e-04 0.0 1.000000e-03 0.0 1.000000e-01 0.0
6.460000e-05 1.000000e-01 0.0 3.265878e-04 0.0 1.000000e-03 0.0 1.000000e-01 0.0
6.530000e-05 1.000000e-01 0.0 2.491724e-04 0.0 1.000000e-03 0.0 1.000000e-01 0.0
6.600000e-05 1.000000e-01 0.0 2.070141e-04 0.0 1.000000e-03 0.0 1.000000e-01 0.0
6.670000e-05 1.000000e-01 0.0 1.749847e-04 0.0 1.000000e-03 0.0 1.000000e-01 0.0
6.750000e-05 1.000000e-01 0.0 1.086426e-04 0.0 1.000000e-03 0.0 1.000000e-01 0.0
6.830000e-05 1.000000e-01 0.0 1.931968e-04 0.0 1.000000e-03 0.0 1.000000e-01 0.0
6.930000e-05 1.000000e-01 0.0 9.204496e-05 0.0 1.000000e-03 0.0 1.000000e-01 0.0
7.040000e-05 1.000000e-01 0.0 3.507519e-05 0.0 1.000000e-03 0.0 1.000000e-01 0.0
7.140000e-05 1.000000e-01 0.0 4.221823e-05 0.0 1.000000e-03 0.0 1.000000e-01 0.0
7.240000e-05 1.000000e-01 0.0 4.736963e-05 0.0 1.000000e-03 0.0 1.000000e-01 0.0
7.340000e-05 1.000000e-01 0.0 5.211947e-05 0.0 1.000000e-03 0.0 1.000000e-01 0.0
7.440000e-05 1.000000e-01 0.0 1.110453e-04 0.0 1.000000e-03 0.0 1.000000e-01 0.0
7.540000e-05 1.000000e-01 0.0 1.107899e-04 0.0 1.000000e-03 0.0 1.000000e-01 0.0
7.640000e-05 1.000000e-01 0.0 9.794900e-05 0.0 1.000000e-03 0.0 1.000000e-01 0.0
7.740000e-05 1.000000e-01 0.0 7.620790e-05 0.0 1.000000e-03 0.0 1.000000e-01 0.0
7.840000e-05 1.000000e-01 0.0 8.609938e-05 0.0 1.000000e-03 0.0 1.000000e-01 0.0
7.940000e-05 1.000000e-01 0.0 8.629785e-05 0.0 1.000000e-03 0.0 1.000000e-01 0.0
8.040000e-05 1.000000e-01 0.0 1.148154e-04 0.0 1.000000e-03 0.0 1.000000e-01 0.0
8.140000e-05 1.000000e-01 0.0 6.165950e-05 0.0 1.000000e-03 0.0 1.000000e-01 0.0
8.250000e-05 1.000000e-01 0.0 6.456542e-05 0.0 1.000000e-03 0.0 1.000000e-01 0.0
8.350000e-05 1.000000e-01 0.0 4.041104e-05 0.0 1.000000e-03 0.0 1.000000e-01 0.0
8.450000e-05 1.000000e-01 0.0 3.115301e-05 0.0 1.000000e-03 0.0 1.000000e-01 0.0
8.550000e-05 1.000000e-01 0.0 3.788785e-05 0.0 1.000000e-03 0.0 1.000000e-01 0.0
8.650000e-05 1.000000e-01 0.0 4.187936e-05 0.0 1.000000e-03 0.0 1.000000e-01 0.0
8.750000e-05 1.000000e-01 0.0 6.926279e-05 0.0 1.000000e-03 0.0 1.000000e-01 0.0
8.850000e-05 1.000000e-01 0.0 4.508167e-05 0.0 1.000000e-03 0.0 1.000000e-01 0.0
8.950000e-05 1.000000e-01 0.0 4.709773e-05 0.0 1.000000e-03 0.0 1.000000e-01 0.0
9.050000e-05 1.000000e-01 0.0 7.989139e-06 0.0 1.000000e-03 0.0 1.000000e-01 0.0
9.150000e-05 1.000000e-01 0.0 3.639150e-05 0.0 1.000000e-03 0.0 1.000000e-01 0.0
9.250000e-05 1.000000e-01 0.0 6.745280e-05 0.0 1.000000e-03 0.0 1.000000e-01 0.0
9.370000e-05 1.000000e-01 0.0 7.277798e-05 0.0 1.000000e-03 0.0 1.000000e-01 0.0
9.510000e-05 1.000000e-01 0.0 2.312065e-05 0.0 1.000000e-03 0.0 1.000000e-01 0.0
9.650000e-05 1.000000e-01 0.0 2.741574e-05 0.0 1.000000e-03 0.0 1.000000e-01 0.0
9.790000e-05 1.000000e-01 0.0 4.715199e-05 0.0 1.000000e-03 0.0 1.000000e-01 0.0
9.930000e-05 1.000000e-01 0.0 1.028016e-04 0.0 1.000000e-03 0.0 1.000000e-01 0.0
1.007000e-04 1.000000e-01 0.0 1.235947e-04 0.0 1.000000e-03 0.0 1.000000e-01 0.0
1.021000e-04 1.000000e-01 0.0 7.888601e-05 0.0 1.000000e-03 0.0 1.000000e-01 0.0
1.035000e-04 1.000000e-01 0.0 8.800351e-05 0.0 1.000000e-03 0.0 1.000000e-01 0.0
1.049000e-04 1.000000e-01 0.0 2.137962e-05 0.0 1.000000e-03 0.0 1.000000e-01 0.0
1.062000e-04 1.000000e-01 0.0 5.284453e-06 0.0 1.000000e-03 0.0 1.000000e-01 0.0
1.076000e-04 1.000000e-01 0.0 8.452788e-05 0.0 1.000000e-03 0.0 1.000000e-01 0.0
1.090000e-04 1.000000e-01 0.0 1.518798e-04 0.0 1.000000e-03 0.0 1.000000e-01 0.0
1.104000e-04 1.000000e-01 0.0 1.566751e-04 0.0 1.000000e-03 0.0 1.000000e-01 0.0
1.118000e-04 1.000000e-01 0.0 1.414165e-04 0.0 1.000000e-03 0.0 1.000000e-01 0.0
1.132000e-04 1.000000e-01 0.0 1.592209e-04 0.0 1.000000e-03 0.0 1.000000e-01 0.0
1.146000e-04 1.000000e-01 0.0 1.923092e-04 0.0 1.000000e-03 0.0 1.000000e-01 0.0
1.160000e-04 1.000000e-01 0.0 1.644372e-04 0.0 1.000000e-03 0.0 1.000000e-01 0.0
1.174000e-04 1.000000e-01 0.0 2.009093e-04 0.0 1.000000e-03 0.0 1.000000e-01 0.0
1.188000e-04 1.000000e-01 0.0 1.997561e-04 0.0 1.000000e-03 0.0 1.000000e-01 0.0
