!Agilent N9923A: A.05.34
!Date: Wednesday, 25 June 2025 10:50:26
!Model: N9923A
!Serial: MY51491492
!GPS Latitude: 
!GPS Longitude: 
!GPS TimeStamp: 0001-01-01 00:00:00Z
!GPS Seconds Since Last Read: 0
!CHECKSUM:1124490689
!Correction: S11()S21(Rdy)S12()S22()
!S2P File: Measurements:S11,S21,S12,S22:
# Hz S DB R 50
2000000	0	0	36.2668045009306	-116.675492543212	0	0	0	0	
2990000	0	0	35.7486337189152	-169.026079421671	0	0	0	0	
3980000	0	0	35.1687291307478	139.631534050936	0	0	0	0	
4970000	0	0	34.6081061089911	89.5549972663561	0	0	0	0	
5960000	0	0	34.1288538144413	40.7407625428671	0	0	0	0	
6950000	0	0	33.8182146935456	-7.53751682080148	0	0	0	0	
7940000	0	0	33.6923315567468	-56.1428932127619	0	0	0	0	
8930000	0	0	33.6656514132374	-105.766030979378	0	0	0	0	
9920000	0	0	33.5637572570596	-156.702977009088	0	0	0	0	
10910000	0	0	33.243125883169	151.782498788706	0	0	0	0	
11900000	0	0	32.7161775665122	100.99706442813	0	0	0	0	
12890000	0	0	31.9911062208388	51.7299777065646	0	0	0	0	
13880000	0	0	31.368325067358	4.5461870620696	0	0	0	0	
14870000	0	0	30.9412532211763	-41.5147001852233	0	0	0	0	
15860000	0	0	30.795293486519	-87.3046030079842	0	0	0	0	
16850000	0	0	30.8883616155359	-133.920684647387	0	0	0	0	
17840000	0	0	31.0622060002508	177.698384232943	0	0	0	0	
18830000	0	0	31.1814345753961	127.330215632877	0	0	0	0	
19820000	0	0	30.9212196171295	76.5065736887182	0	0	0	0	
20810000	0	0	30.4767497205107	26.5575797741422	0	0	0	0	
21800000	0	0	29.9232737894234	-20.6498230200287	0	0	0	0	
22790000	0	0	29.5189664816233	-66.7096049219017	0	0	0	0	
23780000	0	0	29.4388885924439	-111.81816647775	0	0	0	0	
24770000	0	0	29.5834044478446	-158.136596483019	0	0	0	0	
25760000	0	0	30.0277855569994	154.699581746971	0	0	0	0	
26750000	0	0	30.4366421447613	105.071460790865	0	0	0	0	
27740000	0	0	30.587543604725	53.2199675856926	0	0	0	0	
28730000	0	0	30.3744356453866	1.74795993114444	0	0	0	0	
29720000	0	0	29.885954206711	-48.475627316393	0	0	0	0	
30710000	0	0	29.3951616004363	-96.6185986999013	0	0	0	0	
31700000	0	0	29.0369266376163	-143.094004156669	0	0	0	0	
32690000	0	0	28.971922068858	171.003382253147	0	0	0	0	
33680000	0	0	29.3340852907342	123.69976089243	0	0	0	0	
34670000	0	0	29.5331746824339	75.6676846363904	0	0	0	0	
35660000	0	0	29.8478192239309	25.0386170560897	0	0	0	0	
36650000	0	0	29.8820851201816	-27.1870977364771	0	0	0	0	
37640000	0	0	29.5202081274488	-78.6368645356056	0	0	0	0	
38630000	0	0	29.0466876681218	-129.034432210234	0	0	0	0	
39620000	0	0	28.5060402406492	-177.28414710542	0	0	0	0	
40610000	0	0	28.1410059363311	136.619051321554	0	0	0	0	
41600000	0	0	28.0710914537797	89.8175567047841	0	0	0	0	
42590000	0	0	28.1842124923376	42.9744573650056	0	0	0	0	
43580000	0	0	28.4481309910795	-5.7218655207395	0	0	0	0	
44570000	0	0	28.6591168469103	-55.6200010345271	0	0	0	0	
45560000	0	0	28.6542190032767	-107.277994658172	0	0	0	0	
46550000	0	0	28.2296317956589	-158.314351117868	0	0	0	0	
47540000	0	0	27.9503090796997	152.977678497711	0	0	0	0	
48530000	0	0	27.53766115457	104.884578860637	0	0	0	0	
49520000	0	0	27.2533196776655	56.7503427033812	0	0	0	0	
50510000	0	0	27.1753687076321	9.13635439582905	0	0	0	0	
51500000	0	0	27.1918483591251	-38.8542249190645	0	0	0	0	
52490000	0	0	27.1927531160265	-87.9453207023015	0	0	0	0	
53480000	0	0	27.1671073467115	-137.229800166633	0	0	0	0	
54470000	0	0	27.0441614736866	172.793968174566	0	0	0	0	
55460000	0	0	26.9129574870411	123.356630232754	0	0	0	0	
56450000	0	0	26.6981854999469	74.2485027752753	0	0	0	0	
57440000	0	0	26.547864702102	25.4941452499014	0	0	0	0	
58430000	0	0	26.3995411016277	-23.3810841716261	0	0	0	0	
59420000	0	0	26.341728339839	-72.4226187133636	0	0	0	0	
60410000	0	0	26.2077287550173	-121.6946785301	0	0	0	0	
61400000	0	0	26.191421690884	-170.822985122429	0	0	0	0	
62390000	0	0	25.9701439017715	139.949659181335	0	0	0	0	
63380000	0	0	25.7855960436454	90.8701180422083	0	0	0	0	
64370000	0	0	25.681101511108	42.1111889088459	0	0	0	0	
65360000	0	0	25.636327540789	-6.9802448120194	0	0	0	0	
66350000	0	0	25.5167648255279	-56.6972276406402	0	0	0	0	
67340000	0	0	25.5201429642702	-106.221765887808	0	0	0	0	
68330000	0	0	25.3062862334829	-157.131551759788	0	0	0	0	
69320000	0	0	25.0944237695298	153.369564211892	0	0	0	0	
70310000	0	0	24.8245605629069	103.592172768402	0	0	0	0	
71300000	0	0	24.607164015039	54.4959757028439	0	0	0	0	
72290000	0	0	24.4440271804665	5.9269965149854	0	0	0	0	
73280000	0	0	24.4322847473914	-43.6020406875371	0	0	0	0	
74270000	0	0	24.4382054949704	-93.347208638765	0	0	0	0	
75260000	0	0	24.3982957792168	-143.814541252699	0	0	0	0	
76250000	0	0	24.243170282266	164.939204532238	0	0	0	0	
77240000	0	0	23.966172527276	113.838303628258	0	0	0	0	
78230000	0	0	23.582013458806	63.5715798795266	0	0	0	0	
79220000	0	0	23.2111029399322	14.6480846211505	0	0	0	0	
80210000	0	0	23.0371901764134	-34.1420053467127	0	0	0	0	
81200000	0	0	22.9799080500808	-82.4459700006565	0	0	0	0	
82190000	0	0	23.1548896263513	-133.044456728023	0	0	0	0	
83180000	0	0	23.2771015205657	175.660721095461	0	0	0	0	
84170000	0	0	23.2973940903456	123.056792037138	0	0	0	0	
85160000	0	0	23.0919359893879	69.5792188005976	0	0	0	0	
86150000	0	0	22.6367864288101	16.8117833788662	0	0	0	0	
87140000	0	0	22.1875318159198	-34.8315401932187	0	0	0	0	
88130000	0	0	21.7360333606271	-85.7790624203831	0	0	0	0	
89120000	0	0	21.46793429388	-136.098091107132	0	0	0	0	
90110000	0	0	21.3219974045136	172.742870298262	0	0	0	0	
91100000	0	0	21.362694087968	120.562656221355	0	0	0	0	
92090000	0	0	21.3052662864	65.8131220800581	0	0	0	0	
93080000	0	0	20.9978875261397	9.81083511913529	0	0	0	0	
94070000	0	0	20.2907372318843	-47.346734881378	0	0	0	0	
95060000	0	0	19.1712415928643	-102.781164539332	0	0	0	0	
96050000	0	0	17.9143389917763	-156.573012098197	0	0	0	0	
97040000	0	0	16.6116436807914	151.472862435287	0	0	0	0	
98030000	0	0	15.4754091895249	101.060299887061	0	0	0	0	
99020000	0	0	14.4285258866784	50.8163285547	0	0	0	0	
100010000	0	0	13.5447855197024	0.248883303849648	0	0	0	0	
101000000	0	0	12.6424758336769	-52.1835013115725	0	0	0	0	
101990000	0	0	11.6078869930823	-103.823316365865	0	0	0	0	
102980000	0	0	10.3018935054497	-155.471476494387	0	0	0	0	
103970000	0	0	8.88785562302784	153.365027018334	0	0	0	0	
104960000	0	0	7.397404259419	104.212013242771	0	0	0	0	
105950000	0	0	6.03030474867199	56.3804785820208	0	0	0	0	
106940000	0	0	4.85467503021145	9.49104621364393	0	0	0	0	
107930000	0	0	3.83690852794491	-37.9045154780393	0	0	0	0	
108920000	0	0	2.83846375036425	-85.9185065033983	0	0	0	0	
109910000	0	0	1.86590460848334	-134.484342419826	0	0	0	0	
110900000	0	0	0.812077586257472	176.639443557257	0	0	0	0	
111890000	0	0	-0.255810908763616	127.896891054732	0	0	0	0	
112880000	0	0	-1.62974360363938	79.209446581855	0	0	0	0	
113870000	0	0	-2.92676851375391	31.926325576302	0	0	0	0	
114860000	0	0	-4.12329390436638	-14.3401588802883	0	0	0	0	
115850000	0	0	-5.21039138510888	-60.7836567035214	0	0	0	0	
116840000	0	0	-6.15769815187456	-107.269615832031	0	0	0	0	
117830000	0	0	-7.1003500094053	-154.205332693476	0	0	0	0	
118820000	0	0	-8.11733506010355	157.829648488046	0	0	0	0	
119810000	0	0	-9.28123990758432	110.111774178638	0	0	0	0	
120800000	0	0	-10.4573158366628	63.0987287288929	0	0	0	0	
121790000	0	0	-11.5765083148476	16.246067361916	0	0	0	0	
122780000	0	0	-12.8384441135063	-30.4932793358543	0	0	0	0	
123770000	0	0	-13.8133885920243	-76.5055684227122	0	0	0	0	
124760000	0	0	-15.1071378546352	-123.945450967419	0	0	0	0	
125750000	0	0	-16.0969898430616	-169.831109135617	0	0	0	0	
126740000	0	0	-17.4786711545922	143.026877273684	0	0	0	0	
127730000	0	0	-18.570656194772	97.2422918027305	0	0	0	0	
128720000	0	0	-19.9492123487396	52.202876012994	0	0	0	0	
129710000	0	0	-21.1446627239476	3.70557071886433	0	0	0	0	
130700000	0	0	-22.3536350054249	-40.4238806310773	0	0	0	0	
131690000	0	0	-23.9767542404916	-87.2701789733159	0	0	0	0	
132680000	0	0	-25.4189432588973	-134.190612323184	0	0	0	0	
133670000	0	0	-26.6568051836686	-179.67467933519	0	0	0	0	
134660000	0	0	-28.100842011486	135.117883489514	0	0	0	0	
135650000	0	0	-30.3468771634184	88.7431277797808	0	0	0	0	
136640000	0	0	-32.2936311064461	46.7943219285115	0	0	0	0	
137630000	0	0	-34.4979565589468	12.4320628465052	0	0	0	0	
138620000	0	0	-36.999974073197	-32.2100572971668	0	0	0	0	
139610000	0	0	-37.9252761638225	-69.7143812949084	0	0	0	0	
140600000	0	0	-41.6238803616259	-98.3506901721596	0	0	0	0	
141590000	0	0	-44.0261510970949	-154.814827313466	0	0	0	0	
142580000	0	0	-51.4803074154535	-155.143272989675	0	0	0	0	
143570000	0	0	-43.7505539363225	178.574092713669	0	0	0	0	
144560000	0	0	-41.8019135121639	137.947612734162	0	0	0	0	
145550000	0	0	-39.8643016708898	101.92114709023	0	0	0	0	
146540000	0	0	-38.2304891998544	87.1207999185244	0	0	0	0	
147530000	0	0	-37.3971893793486	40.9782010629841	0	0	0	0	
148520000	0	0	-38.0594734485742	-16.5226738722628	0	0	0	0	
149510000	0	0	-36.3491859709418	-50.8133180687021	0	0	0	0	
150500000	0	0	-38.8266376520238	-98.1508019949137	0	0	0	0	
151490000	0	0	-35.830140909963	-150.233686100937	0	0	0	0	
152480000	0	0	-36.8541289487126	162.696707761975	0	0	0	0	
153470000	0	0	-37.281942103069	118.51349375073	0	0	0	0	
154460000	0	0	-37.1858825340969	72.7124730258879	0	0	0	0	
155450000	0	0	-35.5127119696154	21.0662910992449	0	0	0	0	
156440000	0	0	-36.3130316530301	-12.6337297774503	0	0	0	0	
157430000	0	0	-36.2834550315947	-57.1736141645038	0	0	0	0	
158420000	0	0	-35.1115520885086	-103.32839401374	0	0	0	0	
159410000	0	0	-34.3458534240371	-155.984941996057	0	0	0	0	
160400000	0	0	-35.948052047494	153.140666670716	0	0	0	0	
161390000	0	0	-35.8901302617955	88.1678585612492	0	0	0	0	
162380000	0	0	-38.7144786835747	68.5951890004538	0	0	0	0	
163370000	0	0	-39.0585415686534	9.46498330955844	0	0	0	0	
164360000	0	0	-35.7522944279827	-28.824309213372	0	0	0	0	
165350000	0	0	-37.3868375796087	-78.4128431413605	0	0	0	0	
166340000	0	0	-37.3546958527877	-131.349341865135	0	0	0	0	
167330000	0	0	-36.1370044712806	-174.228845498565	0	0	0	0	
168320000	0	0	-36.2768130783414	141.558996882926	0	0	0	0	
169310000	0	0	-39.6936426533657	82.416541232755	0	0	0	0	
170300000	0	0	-39.4710359941726	42.4408227233164	0	0	0	0	
171290000	0	0	-41.7347356151054	10.9159934068131	0	0	0	0	
172280000	0	0	-42.1641664856182	-52.2223297386837	0	0	0	0	
173270000	0	0	-41.7932158475982	-97.0915399702555	0	0	0	0	
174260000	0	0	-41.2905288058255	-134.287305242807	0	0	0	0	
175250000	0	0	-39.0569603499373	173.644932620002	0	0	0	0	
176240000	0	0	-40.9829115665309	137.91285245825	0	0	0	0	
177230000	0	0	-42.2142223201783	83.3992147829313	0	0	0	0	
178220000	0	0	-41.9679459385615	52.1736534065169	0	0	0	0	
179210000	0	0	-43.2219024276573	4.89614452568145	0	0	0	0	
180200000	0	0	-43.112088635246	-56.5891503361177	0	0	0	0	
181190000	0	0	-45.9382295148661	-83.9412247220594	0	0	0	0	
182180000	0	0	-45.5754530029924	-172.317115913416	0	0	0	0	
183170000	0	0	-46.0478861964525	171.640753722667	0	0	0	0	
184160000	0	0	-43.9583692534806	118.894137926457	0	0	0	0	
185150000	0	0	-51.772275053388	90.3682666288833	0	0	0	0	
186140000	0	0	-56.6947969102487	45.1001872295488	0	0	0	0	
187130000	0	0	-50.6511217098382	7.57949909463972	0	0	0	0	
188120000	0	0	-46.9210359186186	-66.5724774036435	0	0	0	0	
189110000	0	0	-50.1861310307736	-124.765147256045	0	0	0	0	
190100000	0	0	-51.8669010536605	-161.43556921712	0	0	0	0	
191090000	0	0	-49.6787066757963	171.243959281014	0	0	0	0	
192080000	0	0	-46.2341333620301	109.40433316166	0	0	0	0	
193070000	0	0	-61.5644107728198	-16.382866195753	0	0	0	0	
194060000	0	0	-60.2976524202454	42.8504985670275	0	0	0	0	
195050000	0	0	-49.9747295838695	-55.4435400086512	0	0	0	0	
196040000	0	0	-59.475916417008	-95.3832474061409	0	0	0	0	
197030000	0	0	-60.7763591181862	145.04597858894	0	0	0	0	
198020000	0	0	-68.8940613617481	168.223419992013	0	0	0	0	
199010000	0	0	-59.8718327685305	140.45755940182	0	0	0	0	
200000000	0	0	-63.1202353113633	157.948436422117	0	0	0	0	
